
**** 04/21/21 22:30:14 ******* PSpice 17.4.0 (Nov 2018) ******* ID# 0 ********

 ** Profile: "SCHEMATIC1-DC_Bias"  [ D:\GitHub\OrCadPSpiceProjects\008_N-ChannelDrive\008_n-channeldrive-pspicefiles\schematic1\dc_bi


 ****     CIRCUIT DESCRIPTION


******************************************************************************




** Creating circuit file "DC_Bias.cir" 
** WARNING: THIS AUTOMATICALLY GENERATED FILE MAY BE OVERWRITTEN BY SUBSEQUENT SIMULATIONS

*Libraries: 
* Profile Libraries :
* Local Libraries :
* From [PSPICE NETLIST] section of D:\Program Files\Cadence\SPB_Data\cdssetup\OrCAD_PSpice\17.4.0\PSpice.ini file:
.lib "nom.lib" 

*Analysis directives: 
.OPTIONS ADVCONV
.PROBE64 V(alias(*)) I(alias(*)) W(alias(*)) D(alias(*)) NOISE(alias(*)) 
.INC "..\SCHEMATIC1.net" 



**** INCLUDING SCHEMATIC1.net ****
* source 008_N-CHANNELDRIVE
V_V1         +5V 0 +5Vdc
X_Q1         N00351 N02158 +12V awb2n4125 PARAMS:                              
+               
V_V2         +12V 0 +12Vdc
R_R2         0 N00351  5k TC=0,0 
R_R3         N00436 +12V  3 TC=0,0 
R_R4         N00545 N00351  1k TC=0,0 
R_R6         +5V 0  5k TC=0,0 
M_M1         N00436 N00545 0 0 M2N6755
R_R7         +12V N00745  10k TC=0,0 
R_R8         N00745 0  100k TC=0,0 
R_R5         0 +5V  5k TC=0,0 
R_R9         N00745 N02158  1k TC=0,0 
R_R13         N02912 N02904  1k TC=0,0 
R_R12         N02758 N02828  1k TC=0,0 
R_R14         N02758 0  10k TC=0,0 
R_R11         N02812 +12V  3 TC=0,0 
R_R10         +12V N02758  10k TC=0,0 
R_R15         0 N02904  5k TC=0,0 
M_M3         N02812 N02912 0 0 M2N6755
X_M5         N02904 N02828 +12V BSO613SPV/L1/INF
X_U1         N06295 0 N05689 +12V awb3c91
M_M7         N055791 N05745 0 0 M2N6755
R_R17         N055791 +12V  3 TC=0,0 
R_R19         N05745 N05689  1k TC=0,0 
R_R21         0 N05689  5k TC=0,0 
R_R22         +5V N06295  520 TC=0,0 
R_R24         +5V 0  5k TC=0,0 
R_R25         0 N08121  1k TC=0,0 
R_R26         0 N09683  1k TC=0,0 
X_U3A         +12V N08121 +5V N09683 awbmct66 PARAMS:                          
+        

**** RESUMING DC_Bias.cir ****
.END

**** 04/21/21 22:30:14 ******* PSpice 17.4.0 (Nov 2018) ******* ID# 0 ********

 ** Profile: "SCHEMATIC1-DC_Bias"  [ D:\GitHub\OrCadPSpiceProjects\008_N-ChannelDrive\008_n-channeldrive-pspicefiles\schematic1\dc_bi


 ****     Diode MODEL PARAMETERS


******************************************************************************




               X_U1.M2MD13C9X  
          IS  181.177700E-15 
           N    1.81234      
          BV   14            
         IBV    1            
          RS     .834683     
         CJO   31.224990E-12 
          VJ     .9          


**** 04/21/21 22:30:14 ******* PSpice 17.4.0 (Nov 2018) ******* ID# 0 ********

 ** Profile: "SCHEMATIC1-DC_Bias"  [ D:\GitHub\OrCadPSpiceProjects\008_N-ChannelDrive\008_n-channeldrive-pspicefiles\schematic1\dc_bi


 ****     BJT MODEL PARAMETERS


******************************************************************************




               X_Q1.model7     X_U1.M1MQ13C9X  
               PNP             NPN             
       LEVEL    1               1            
          IS    8.315000E-15  100.000000E-15 
          EG    1.11                         
          BF  188             100            
          NF    1               1            
         VAF   38.73           98            
         IKF     .02384       300.000000E+06 
         ISE    9.209000E-15                 
          NE    1.297           2            
          BR    8.017            .362        
          NR    1               1            
         VAR   10                            
         IKR     .02412                      
         ISC   37.330000E-15    1.000000E-09 
          NC    1.163                        
         ISS    0               0            
         IRB    5.750000E-03                 
          RE    1.53            0            
          RC    5.372          10            
         CJE    6.795000E-12   29.830000E-12 
         VJE     .7866           .9          
         MJE     .3494           .5          
         CJC    8.554000E-12   21.380000E-12 
         VJC     .448            .7          
         MJC     .3918           .333        
        XCJC    1               1            
         CJS    0               0            
         VJS     .75             .75         
          TF  380.700000E-12    6.930000E-09 
         XTF   13.57                         
         VTF     .5252                       
         ITF     .5518                       
          TR   23.900000E-09   10.000000E-09 
         XTB    1.5             1.5          
          KF    0               0            
          AF    1               1            
          CN    2.2             2.42         
           D     .52             .87         


**** 04/21/21 22:30:14 ******* PSpice 17.4.0 (Nov 2018) ******* ID# 0 ********

 ** Profile: "SCHEMATIC1-DC_Bias"  [ D:\GitHub\OrCadPSpiceProjects\008_N-ChannelDrive\008_n-channeldrive-pspicefiles\schematic1\dc_bi


 ****     MOSFET MODEL PARAMETERS


******************************************************************************




               M2N6755         
               NMOS            
       LEVEL    3            
           L    2.000000E-06 
           W    1.1          
         VTO    3.143        
          KP   21.350000E-06 
       GAMMA    0            
         PHI     .6          
      LAMBDA    0            
          RD     .06468      
          RS     .1207       
          RG    5.839        
         RDS  600.000000E+03 
          IS   44.210000E-15 
          JS    0            
          PB     .8          
        PBSW     .8          
         CBD    1.273000E-09 
          CJ    0            
        CJSW    0            
          TT  370.000000E-09 
        CGSO  729.700000E-12 
        CGDO  310.400000E-12 
        CGBO    0            
         TOX  100.000000E-09 
          XJ    0            
       UCRIT   10.000000E+03 
       DELTA    0            
         ETA    0            
      DIOMOD    1            
         VFB    0            
        LETA    0            
        WETA    0            
          U0    0            
        TEMP    0            
         VDD    5            
       XPART    0            


**** 04/21/21 22:30:14 ******* PSpice 17.4.0 (Nov 2018) ******* ID# 0 ********

 ** Profile: "SCHEMATIC1-DC_Bias"  [ D:\GitHub\OrCadPSpiceProjects\008_N-ChannelDrive\008_n-channeldrive-pspicefiles\schematic1\dc_bi


 ****     SMALL SIGNAL BIAS SOLUTION       TEMPERATURE =   27.000 DEG C


******************************************************************************



 NODE   VOLTAGE     NODE   VOLTAGE     NODE   VOLTAGE     NODE   VOLTAGE


(  +5V)    5.0000  ( +12V)   12.0000  (N00351)   11.8790 (N00436)     .7348     

(N00545)   11.8790 (N00745)   11.2690 (N02158)   11.3080 (N02758)    6.0000     

(N02812)     .7343 (N02828)    6.0000 (N02904)   12.0000 (N02912)   12.0000     

(N05689)   11.1280 (N05745)   11.1280 (N06295)    1.1515 (N08121)   10.7790     

(N09683)    4.1393 (X_M5.d)   12.0000 (X_M5.g)    6.0000 (X_M5.s)   12.0000     

(X_U1.1)   11.7440 (X_U1.4) 7.401E-06 (X_U1.7)    1.0000 (N055791)     .7385    

(X_M5.dr1)   12.0000                  (X_M5.ga1)    6.0000                      

(X_M5.so1)   12.0000                  (X_U3A.xinstmct66.2)    4.7947            

(X_U3A.xinstmct66.6)   11.9980        




    VOLTAGE SOURCE CURRENTS
    NAME         CURRENT

    V_V1        -1.454E-02
    V_V2        -1.128E+01

    TOTAL POWER DISSIPATION   1.35E+02  WATTS



          JOB CONCLUDED

**** 04/21/21 22:30:14 ******* PSpice 17.4.0 (Nov 2018) ******* ID# 0 ********

 ** Profile: "SCHEMATIC1-DC_Bias"  [ D:\GitHub\OrCadPSpiceProjects\008_N-ChannelDrive\008_n-channeldrive-pspicefiles\schematic1\dc_bi


 ****     JOB STATISTICS SUMMARY


******************************************************************************



  License check-out time            =        9.69
  Total job time (using Solver 1)   =         .22
