
**** 04/21/21 11:33:18 ******* PSpice 17.4.0 (Nov 2018) ******* ID# 0 ********

 ** Profile: "SCHEMATIC1-DC_Bias"  [ D:\GitHub\OrCadPSpiceProjects\008_N-ChannelDrive\008_n-channeldrive-pspicefiles\schematic1\dc_bi


 ****     CIRCUIT DESCRIPTION


******************************************************************************




** Creating circuit file "DC_Bias.cir" 
** WARNING: THIS AUTOMATICALLY GENERATED FILE MAY BE OVERWRITTEN BY SUBSEQUENT SIMULATIONS

*Libraries: 
* Profile Libraries :
* Local Libraries :
* From [PSPICE NETLIST] section of F:\Program Files\Cadence\SPB_Data\cdssetup\OrCAD_PSpice\17.4.0\PSpice.ini file:
.lib "nom.lib" 

*Analysis directives: 
.OPTIONS ADVCONV
.PROBE64 V(alias(*)) I(alias(*)) W(alias(*)) D(alias(*)) NOISE(alias(*)) 
.INC "..\SCHEMATIC1.net" 



**** INCLUDING SCHEMATIC1.net ****
* source 008_N-CHANNELDRIVE
V_V1         +5V 0 +5Vdc
X_Q1         N00351 N05042 +12V awb2n4125 PARAMS:                              
+               
V_V2         +12V 0 +10Vdc
R_R2         0 N00351  5k TC=0,0 
R_R3         N00436 +12V  3 TC=0,0 
R_R4         N00545 N00351  1k TC=0,0 
R_R6         +5V 0  5k TC=0,0 
M_M1         N00436 N00545 0 0 M2N6755
R_R13         N02912 N02904  1k TC=0,0 
R_R12         N06374 N02824  20k TC=0,0 
R_R14         N02824 0  100k TC=0,0 
R_R11         N02812 +12V  3 TC=0,0 
R_R15         0 N02904  5k TC=0,0 
M_M3         N02812 N02912 0 0 M2N6755
X_M5         N02904 N02824 +12V BSO613SPV/L1/INF
R_R16         N05042 +12V  10k TC=0,0 
R_R18         +5V +5V  500 TC=0,0 
R_R10         +12V N02824  7.5k TC=0,0 
R_R19         N06374 0  7k TC=0,0 
R_R20         +5V 0  5k TC=0,0 
R_R21         +5V 0  500 TC=0,0 

**** RESUMING DC_Bias.cir ****
.END

**** 04/21/21 11:33:18 ******* PSpice 17.4.0 (Nov 2018) ******* ID# 0 ********

 ** Profile: "SCHEMATIC1-DC_Bias"  [ D:\GitHub\OrCadPSpiceProjects\008_N-ChannelDrive\008_n-channeldrive-pspicefiles\schematic1\dc_bi


 ****     BJT MODEL PARAMETERS


******************************************************************************




               X_Q1.model7     
               PNP             
       LEVEL    1            
          IS    8.315000E-15 
          EG    1.11         
          BF  188            
          NF    1            
         VAF   38.73         
         IKF     .02384      
         ISE    9.209000E-15 
          NE    1.297        
          BR    8.017        
          NR    1            
         VAR   10            
         IKR     .02412      
         ISC   37.330000E-15 
          NC    1.163        
         ISS    0            
         IRB    5.750000E-03 
          RE    1.53         
          RC    5.372        
         CJE    6.795000E-12 
         VJE     .7866       
         MJE     .3494       
         CJC    8.554000E-12 
         VJC     .448        
         MJC     .3918       
        XCJC    1            
         CJS    0            
         VJS     .75         
          TF  380.700000E-12 
         XTF   13.57         
         VTF     .5252       
         ITF     .5518       
          TR   23.900000E-09 
         XTB    1.5          
          KF    0            
          AF    1            
          CN    2.2          
           D     .52         


**** 04/21/21 11:33:18 ******* PSpice 17.4.0 (Nov 2018) ******* ID# 0 ********

 ** Profile: "SCHEMATIC1-DC_Bias"  [ D:\GitHub\OrCadPSpiceProjects\008_N-ChannelDrive\008_n-channeldrive-pspicefiles\schematic1\dc_bi


 ****     MOSFET MODEL PARAMETERS


******************************************************************************




               M2N6755         
               NMOS            
       LEVEL    3            
           L    2.000000E-06 
           W    1.1          
         VTO    3.143        
          KP   21.350000E-06 
       GAMMA    0            
         PHI     .6          
      LAMBDA    0            
          RD     .06468      
          RS     .1207       
          RG    5.839        
         RDS  600.000000E+03 
          IS   44.210000E-15 
          JS    0            
          PB     .8          
        PBSW     .8          
         CBD    1.273000E-09 
          CJ    0            
        CJSW    0            
          TT  370.000000E-09 
        CGSO  729.700000E-12 
        CGDO  310.400000E-12 
        CGBO    0            
         TOX  100.000000E-09 
          XJ    0            
       UCRIT   10.000000E+03 
       DELTA    0            
         ETA    0            
      DIOMOD    1            
         VFB    0            
        LETA    0            
        WETA    0            
          U0    0            
        TEMP    0            
         VDD    5            
       XPART    0            


**** 04/21/21 11:33:18 ******* PSpice 17.4.0 (Nov 2018) ******* ID# 0 ********

 ** Profile: "SCHEMATIC1-DC_Bias"  [ D:\GitHub\OrCadPSpiceProjects\008_N-ChannelDrive\008_n-channeldrive-pspicefiles\schematic1\dc_bi


 ****     SMALL SIGNAL BIAS SOLUTION       TEMPERATURE =   27.000 DEG C


******************************************************************************



 NODE   VOLTAGE     NODE   VOLTAGE     NODE   VOLTAGE     NODE   VOLTAGE


(  +5V)    5.0000  ( +12V)   10.0000  (N00351) 69.39E-09 (N00436)   10.0000     

(N00545) 69.39E-09 (N02812)   10.0000 (N02824)    7.3922 (N02904)     .0787     

(N02912)     .0787 (N05042)   10.0000 (N06374)    1.9165 (X_M5.d)     .0787     

(X_M5.g)    7.3922 (X_M5.s)   10.0000 (X_M5.dr1)     .0787                      

(X_M5.ga1)    7.3922                  (X_M5.so1)   10.0000                  




    VOLTAGE SOURCE CURRENTS
    NAME         CURRENT

    V_V1        -1.200E-02
    V_V2        -3.968E-04

    TOTAL POWER DISSIPATION   6.40E-02  WATTS



          JOB CONCLUDED

**** 04/21/21 11:33:18 ******* PSpice 17.4.0 (Nov 2018) ******* ID# 0 ********

 ** Profile: "SCHEMATIC1-DC_Bias"  [ D:\GitHub\OrCadPSpiceProjects\008_N-ChannelDrive\008_n-channeldrive-pspicefiles\schematic1\dc_bi


 ****     JOB STATISTICS SUMMARY


******************************************************************************



  License check-out time            =       10.56
  Total job time (using Solver 1)   =         .05
