
**** 11/25/21 19:34:25 ******* PSpice 17.4.0 (Nov 2018) ******* ID# 0 ********

 ** Profile: "SCHEMATIC1-Bias Point"  [ D:\GitHub\OrCadPSpiceProjects\003_ResistorNetwork\003_resistornetwork-pspicefiles\schematic1\


 ****     CIRCUIT DESCRIPTION


******************************************************************************




** Creating circuit file "Bias Point.cir" 
** WARNING: THIS AUTOMATICALLY GENERATED FILE MAY BE OVERWRITTEN BY SUBSEQUENT SIMULATIONS

*Libraries: 
* Profile Libraries :
* Local Libraries :
* From [PSPICE NETLIST] section of C:\Users\Maxim\AppData\Roaming\SPB_Data\cdssetup\OrCAD_PSpice\17.4.0\PSpice.ini file:
.lib "nom.lib" 

*Analysis directives: 
.OP
.OPTIONS ADVCONV
.PROBE64 V(alias(*)) I(alias(*)) W(alias(*)) D(alias(*)) NOISE(alias(*)) 
.INC "..\SCHEMATIC1.net" 



**** INCLUDING SCHEMATIC1.net ****
* source 003_RESISTORNETWORK
V_Vsupply         IN 0 10Vdc
R_R1         IN OUT  10R TC=0,0 
R_R2         0 OUT  10R TC=0,0 
C_C1         0 OUT  1n  TC=0,0 
I_I1         0 N01415 DC 0Adc  
R_R3         N01415 N01422  100k TC=0,0 
R_R4         N01426 N01430  10R TC=0,0 
V_VCE         N01430 0 12V
Q_Q1         N01426 N01422 0 QbreakN 

**** RESUMING "Bias Point.cir" ****
.END

**** 11/25/21 19:34:25 ******* PSpice 17.4.0 (Nov 2018) ******* ID# 0 ********

 ** Profile: "SCHEMATIC1-Bias Point"  [ D:\GitHub\OrCadPSpiceProjects\003_ResistorNetwork\003_resistornetwork-pspicefiles\schematic1\


 ****     BJT MODEL PARAMETERS


******************************************************************************




               QbreakN         
               NPN             
       LEVEL    1            
          IS  100.000000E-18 
          BF  100            
          NF    1            
          BR    1            
          NR    1            
         ISS    0            
          RE    0            
          RC    0            
         CJE    0            
         VJE     .75         
         CJC    0            
         VJC     .75         
         MJC     .33         
        XCJC    1            
         CJS    0            
         VJS     .75         
          KF    0            
          AF    1            
          CN    2.42         
           D     .87         


**** 11/25/21 19:34:25 ******* PSpice 17.4.0 (Nov 2018) ******* ID# 0 ********

 ** Profile: "SCHEMATIC1-Bias Point"  [ D:\GitHub\OrCadPSpiceProjects\003_ResistorNetwork\003_resistornetwork-pspicefiles\schematic1\


 ****     SMALL SIGNAL BIAS SOLUTION       TEMPERATURE =   27.000 DEG C


******************************************************************************



 NODE   VOLTAGE     NODE   VOLTAGE     NODE   VOLTAGE     NODE   VOLTAGE


(   IN)   10.0000  (  OUT)    5.0000  (N01415)     .4197 (N01422)     .4197     

(N01426)   12.0000 (N01430)   12.0000 




    VOLTAGE SOURCE CURRENTS
    NAME         CURRENT

    V_Vsupply   -5.000E-01
    V_VCE       -1.139E-09

    TOTAL POWER DISSIPATION   5.00E+00  WATTS


**** 11/25/21 19:34:25 ******* PSpice 17.4.0 (Nov 2018) ******* ID# 0 ********

 ** Profile: "SCHEMATIC1-Bias Point"  [ D:\GitHub\OrCadPSpiceProjects\003_ResistorNetwork\003_resistornetwork-pspicefiles\schematic1\


 ****     OPERATING POINT INFORMATION      TEMPERATURE =   27.000 DEG C


******************************************************************************






**** BIPOLAR JUNCTION TRANSISTORS


NAME         Q_Q1      
MODEL        QbreakN   
IB          -4.20E-13 
IC           1.14E-09 
VBE          4.20E-01 
VBC         -1.16E+01 
VCE          1.20E+01 
BETADC      -2.71E+03 
GM           4.31E-08 
RPI          2.32E+09 
RX           0.00E+00 
RO           1.00E+12 
CBE          0.00E+00 
CBC          0.00E+00 
CJS          0.00E+00 
BETAAC       1.00E+02 
CBX/CBX2     0.00E+00 
FT/FT2       6.87E+11 



          JOB CONCLUDED

**** 11/25/21 19:34:25 ******* PSpice 17.4.0 (Nov 2018) ******* ID# 0 ********

 ** Profile: "SCHEMATIC1-Bias Point"  [ D:\GitHub\OrCadPSpiceProjects\003_ResistorNetwork\003_resistornetwork-pspicefiles\schematic1\


 ****     JOB STATISTICS SUMMARY


******************************************************************************



  Total job time (using Solver 1)   =         .02
